
T1C64 000:026 SEGGER J-Link V6.34f Log File (0000ms, 0014ms total)
T1C64 000:026 DLL Compiled: Sep  5 2018 13:25:28 (0000ms, 0014ms total)
T1C64 000:026 Logging started @ 2018-10-11 15:57 (0000ms, 0014ms total)
T1C64 000:026 JLINK_SetWarnOutHandler(...) (0000ms, 0014ms total)
T1C64 000:026 JLINK_OpenEx(...)
Firmware: J-Link OB-SAM3U128-V2-NordicSemi compiled Jul 12 2018 11:44:41
Hardware: V1.00
S/N: 682626079
TELNET listener socket opened on port 19021WEBSRV 
Starting webserver (0007ms, 0021ms total)
T1C64 000:026 WEBSRV Webserver running on local port 19080 (0007ms, 0021ms total)
T1C64 000:026   returns O.K. (0007ms, 0021ms total)
T1C64 000:033 JLINK_SetErrorOutHandler(...) (0000ms, 0021ms total)
T1C64 000:033 JLINK_ExecCommand("ProjectFile = "D:\Wayne\Work\nRF52\nRF5_SDK_15.0.0_a53641a\Work\EUPedalSensor\PedalSensorServer\pca10040\s132\arm5_no_packs\JLinkSettings.ini"", ...). Ref file found at: C:\Keil_v5\ARM\Segger\JLinkDevices.ref (0001ms, 0022ms total)
T1C64 000:033 XML referenced by ref file: C:\Program Files (x86)\SEGGER\JLink_V634f\JLinkDevices.xml (0001ms, 0022ms total)
T1C64 000:033 C:\Program Files (x86)\SEGGER\JLink_V634f\JLinkDevices.xml evaluated successfully.  returns 0x00 (0054ms, 0075ms total)
T1C64 000:087 JLINK_ExecCommand("Device = nRF52832_xxAA", ...). Device "NRF52832_XXAA" selected.  returns 0x00 (0001ms, 0076ms total)
T1C64 000:088 JLINK_ExecCommand("DisableConnectionTimeout", ...).   returns 0x01 (0000ms, 0076ms total)
T1C64 000:088 JLINK_GetHardwareVersion()  returns 0x2710 (0000ms, 0076ms total)
T1C64 000:088 JLINK_GetDLLVersion()  returns 63406 (0000ms, 0076ms total)
T1C64 000:088 JLINK_GetFirmwareString(...) (0000ms, 0076ms total)
T1C64 000:088 JLINK_GetDLLVersion()  returns 63406 (0000ms, 0076ms total)
T1C64 000:088 JLINK_GetCompileDateTime() (0000ms, 0076ms total)
T1C64 000:088 JLINK_GetFirmwareString(...) (0000ms, 0076ms total)
T1C64 000:088 JLINK_GetHardwareVersion()  returns 0x2710 (0000ms, 0076ms total)
T1C64 000:088 JLINK_TIF_Select(JLINKARM_TIF_SWD)  returns 0x00 (0001ms, 0077ms total)
T1C64 000:089 JLINK_SetSpeed(5000) (0000ms, 0077ms total)
T1C64 000:089 JLINK_GetId() >0x10B TIF>Found SW-DP with ID 0x2BA01477 >0x0D TIF> >0x28 TIF> >0x0D TIF> >0x28 TIF> >0x10B TIF>Found SW-DP with ID 0x2BA01477 >0x0D TIF> >0x28 TIF> >0x0D TIF> >0x28 TIF> >0x0D TIF> >0x28 TIF> >0x0D TIF> >0x28 TIF> >0x35 TIF> >0x0D TIF> >0x28 TIF>Scanning AP map to find all available APs >0x0D TIF> >0x28 TIF> >0x35 TIF> >0x35 TIF> >0x0D TIF> >0x28 TIF> >0x35 TIF> >0x35 TIF> >0x0D TIF> >0x28 TIF> >0x35 TIF> >0x35 TIF>AP[2]: Stopped AP scan as end of AP map has been reached
AP[0]: AHB-AP (IDR: 0x24770011)AP[1]: JTAG-AP (IDR: 0x02880000)Iterating through AP map to find AHB-AP to use >0x42 TIF> >0x28 TIF> >0x0D TIF> >0x28 TIF> >0x35 TIF> >0x35 TIF> >0x42 TIF> >0x28 TIF> >0x0D TIF> >0x28 TIF> >0x0D TIF> >0x28 TIF> >0x35 TIF> >0x35 TIF>AP[0]: Core foundAP[0]: AHB-AP ROM base: 0xE00FF000 >0x0D TIF> >0x28 TIF> >0x0D TIF> >0x28 TIF> >0x0D TIF> >0x28 TIF> >0x35 TIF> >0x35 TIF>CPUID register: 0x410FC241. Implementer code: 0x41 (ARM)Found Cortex-M4 r0p1, Little endian.
 -- Max. mem block: 0x000048E8 -- CPU_ReadMem(4 bytes @ 0xE000EDF0) -- CPU_WriteMem(4 bytes @ 0xE000EDF0) -- CPU_ReadMem(4 bytes @ 0xE0002000)FPUnit: 6 code (BP) slots and 2 literal slots -- CPU_ReadMem(4 bytes @ 0xE000EDFC) -- CPU_WriteMem(4 bytes @ 0xE000EDFC) -- CPU_ReadMem(4 bytes @ 0xE0001000) -- CPU_WriteMem(4 bytes @ 0xE0001000) -- CPU_ReadMem(4 bytes @ 0xE000ED88) -- CPU_WriteMem(4 bytes @ 0xE000ED88) -- CPU_ReadMem(4 bytes @ 0xE000ED88) -- CPU_WriteMem(4 bytes @ 0xE000ED88)CoreSight components:
ROMTbl[0] @ E00FF000 -- CPU_ReadMem(16 bytes @ 0xE00FF000) -- CPU_ReadMem(16 bytes @ 0xE000EFF0) -- CPU_ReadMem(16 bytes @ 0xE000EFE0)ROMTbl[0][0]: E000E000, CID: B105E00D, PID: 000BB00C SCS-M7 -- CPU_ReadMem(16 bytes @ 0xE0001FF0) -- CPU_ReadMem(16 bytes @ 0xE0001FE0)ROMTbl[0][1]: E0001000, CID: B105E00D, PID: 003BB002 DWT -- CPU_ReadMem(16 bytes @ 0xE0002FF0) -- CPU_ReadMem(16 bytes @ 0xE0002FE0)ROMTbl[0][2]: E0002000, CID: B105E00D, PID: 002BB003 FPB -- CPU_ReadMem(16 bytes @ 0xE0000FF0)
 -- CPU_ReadMem(16 bytes @ 0xE0000FE0)ROMTbl[0][3]: E0000000, CID: B105E00D, PID: 003BB001 ITM -- CPU_ReadMem(16 bytes @ 0xE00FF010) -- CPU_ReadMem(16 bytes @ 0xE0040FF0) -- CPU_ReadMem(16 bytes @ 0xE0040FE0)ROMTbl[0][4]: E0040000, CID: B105900D, PID: 000BB9A1 TPIU -- CPU_ReadMem(16 bytes @ 0xE0041FF0) -- CPU_ReadMem(16 bytes @ 0xE0041FE0)ROMTbl[0][5]: E0041000, CID: B105900D, PID: 000BB925 ETM >0x35 TIF>  returns 0x2BA01477 (0129ms, 0206ms total)
T1C64 000:218 JLINK_GetDLLVersion()  returns 63406 (0000ms, 0206ms total)
T1C64 000:218 JLINK_CORE_GetFound()  returns 0xE0000FF (0000ms, 0206ms total)
T1C64 000:218 JLINK_GetDebugInfo(0x100 = JLINKARM_ROM_TABLE_ADDR_INDEX) -- Value=0xE00FF000  returns 0x00 (0000ms, 0206ms total)
T1C64 000:218 JLINK_GetDebugInfo(0x100 = JLINKARM_ROM_TABLE_ADDR_INDEX) -- Value=0xE00FF000  returns 0x00 (0000ms, 0206ms total)
T1C64 000:218 JLINK_GetDebugInfo(0x101 = JLINKARM_DEBUG_INFO_ETM_ADDR_INDEX) -- Value=0xE0041000  returns 0x00 (0000ms, 0206ms total)
T1C64 000:218 JLINK_GetDebugInfo(0x102 = JLINKARM_DEBUG_INFO_MTB_ADDR_INDEX) -- Value=0x00000000  returns 0x00 (0000ms, 0206ms total)
T1C64 000:218 JLINK_GetDebugInfo(0x103 = JLINKARM_DEBUG_INFO_TPIU_ADDR_INDEX) -- Value=0xE0040000  returns 0x00 (0000ms, 0206ms total)
T1C64 000:218 JLINK_GetDebugInfo(0x104 = JLINKARM_DEBUG_INFO_ITM_ADDR_INDEX) -- Value=0xE0000000  returns 0x00 (0000ms, 0206ms total)
T1C64 000:218 JLINK_GetDebugInfo(0x105 = JLINKARM_DEBUG_INFO_DWT_ADDR_INDEX) -- Value=0xE0001000  returns 0x00 (0000ms, 0206ms total)
T1C64 000:218 JLINK_GetDebugInfo(0x106 = JLINKARM_DEBUG_INFO_FPB_ADDR_INDEX) -- Value=0xE0002000  returns 0x00 (0000ms, 0206ms total)
T1C64 000:218 JLINK_GetDebugInfo(0x107 = JLINKARM_DEBUG_INFO_NVIC_ADDR_INDEX) -- Value=0xE000E000  returns 0x00 (0000ms, 0206ms total)
T1C64 000:218 JLINK_GetDebugInfo(0x10C = JLINKARM_DEBUG_INFO_DBG_ADDR_INDEX) -- Value=0xE000EDF0  returns 0x00 (0000ms, 0206ms total)
T1C64 000:218 JLINK_ReadMemU32(0xE000EF40, 0x0001 Items, ...) -- CPU_ReadMem(4 bytes @ 0xE000EF40) - Data: 21 00 11 10  returns 1 (0000ms, 0206ms total)
T1C64 000:218 JLINK_ReadMemU32(0xE000EF44, 0x0001 Items, ...) -- CPU_ReadMem(4 bytes @ 0xE000EF44) - Data: 11 00 00 11  returns 1 (0001ms, 0207ms total)
T1C64 000:219 JLINK_ReadMemU32(0xE000ED00, 0x0001 Items, ...) -- CPU_ReadMem(4 bytes @ 0xE000ED00) - Data: 41 C2 0F 41  returns 1 (0000ms, 0207ms total)
T1C64 000:219 JLINK_SetResetType(JLINKARM_CM3_RESET_TYPE_NORMAL)  returns JLINKARM_CM3_RESET_TYPE_NORMAL (0000ms, 0207ms total)
T1C64 000:219 JLINK_Reset() -- CPU is running -- CPU_WriteMem(4 bytes @ 0xE000EDF0) -- CPU is running -- CPU_WriteMem(4 bytes @ 0xE000EDFC)Reset: Halt core after reset via DEMCR.VC_CORERESET. >0x35 TIF>Reset: Reset device via AIRCR.SYSRESETREQ. -- CPU is running -- CPU_WriteMem(4 bytes @ 0xE000ED0C) >0x0D TIF> >0x28 TIF> -- CPU_ReadMem(4 bytes @ 0xE000EDF0) -- CPU_ReadMem(4 bytes @ 0xE000EDF0) -- CPU is running -- CPU_WriteMem(4 bytes @ 0xE000EDF0) -- CPU is running -- CPU_WriteMem(4 bytes @ 0xE000EDFC)
 -- CPU_ReadMem(4 bytes @ 0xE000EDF0) -- CPU_WriteMem(4 bytes @ 0xE0002000) -- CPU_ReadMem(4 bytes @ 0xE000EDFC) -- CPU_ReadMem(4 bytes @ 0xE0001000) (0072ms, 0279ms total)
T1C64 000:291 JLINK_ReadReg(R15 (PC))  returns 0x000008E8 (0000ms, 0279ms total)
T1C64 000:291 JLINK_ReadReg(XPSR)  returns 0x01000000 (0000ms, 0279ms total)
T1C64 000:291 JLINK_Halt()  returns 0x00 (0000ms, 0279ms total)
T1C64 000:291 JLINK_IsHalted()  returns TRUE (0000ms, 0279ms total)
T1C64 000:291 JLINK_ReadMemU32(0xE000EDF0, 0x0001 Items, ...) -- CPU_ReadMem(4 bytes @ 0xE000EDF0) - Data: 03 00 03 00  returns 1 (0000ms, 0279ms total)
T1C64 000:291 JLINK_WriteU32(0xE000EDF0, 0xA05F0003) -- CPU_WriteMem(4 bytes @ 0xE000EDF0)  returns 0 (0001ms, 0280ms total)
T1C64 000:292 JLINK_WriteU32(0xE000EDFC, 0x01000000) -- CPU_WriteMem(4 bytes @ 0xE000EDFC)  returns 0 (0000ms, 0280ms total)
T1C64 000:292 JLINK_GetHWStatus(...)  returns 0x00 (0001ms, 0281ms total)
T1C64 000:293 JLINK_GetNumBPUnits(Type = 0xFFFFFF00)  returns 0x06 (0000ms, 0281ms total)
T1C64 000:293 JLINK_GetNumBPUnits(Type = 0xF0)  returns 0x2000 (0000ms, 0281ms total)
T1C64 000:293 JLINK_GetNumWPUnits()  returns 0x04 (0000ms, 0281ms total)
T1C64 000:293 JLINK_GetSpeed()  returns 0x3E8 (0000ms, 0281ms total)
T1C64 000:293 JLINK_ReadMemU32(0xE000E004, 0x0001 Items, ...) -- CPU_ReadMem(4 bytes @ 0xE000E004) - Data: 01 00 00 00  returns 1 (0000ms, 0281ms total)
T1C64 000:293 JLINK_ReadMemU32(0xE000E004, 0x0001 Items, ...) -- CPU_ReadMem(4 bytes @ 0xE000E004) - Data: 01 00 00 00  returns 1 (0001ms, 0282ms total)
T1C64 000:294 JLINK_WriteMem(0xE0001000, 0x001C Bytes, ...) - Data: 01 00 00 00 00 00 00 00 00 00 00 00 00 00 00 00 ... -- CPU_WriteMem(28 bytes @ 0xE0001000)  returns 0x1C (0001ms, 0283ms total)
T1C64 000:295 JLINK_ReadMem (0xE0001000, 0x001C Bytes, ...) -- CPU_ReadMem(28 bytes @ 0xE0001000) - Data: 01 00 00 40 00 00 00 00 00 00 00 00 00 00 00 00 ...  returns 0x00 (0001ms, 0284ms total)
T1C64 000:296 JLINK_ReadReg(R15 (PC))  returns 0x000008E8 (0000ms, 0284ms total)
T1C64 000:296 JLINK_ReadReg(XPSR)  returns 0x01000000 (0000ms, 0284ms total)
T1C64 000:418 JLINK_SetResetType(JLINKARM_CM3_RESET_TYPE_NORMAL)  returns JLINKARM_CM3_RESET_TYPE_NORMAL (0000ms, 0284ms total)
T1C64 000:418 JLINK_Reset() -- CPU_WriteMem(4 bytes @ 0xE000EDF0) -- CPU_WriteMem(4 bytes @ 0xE000EDFC)Reset: Halt core after reset via DEMCR.VC_CORERESET. >0x35 TIF>Reset: Reset device via AIRCR.SYSRESETREQ. -- CPU_WriteMem(4 bytes @ 0xE000ED0C) >0x0D TIF> >0x28 TIF> -- CPU_ReadMem(4 bytes @ 0xE000EDF0) -- CPU_ReadMem(4 bytes @ 0xE000EDF0) -- CPU_WriteMem(4 bytes @ 0xE000EDF0) -- CPU_WriteMem(4 bytes @ 0xE000EDFC) -- CPU_ReadMem(4 bytes @ 0xE000EDF0) -- CPU_WriteMem(4 bytes @ 0xE0002000)
 -- CPU_ReadMem(4 bytes @ 0xE000EDFC) -- CPU_ReadMem(4 bytes @ 0xE0001000) (0071ms, 0355ms total)
T1C64 000:489 JLINK_ReadReg(R15 (PC))  returns 0x000008E8 (0000ms, 0355ms total)
T1C64 000:489 JLINK_ReadReg(XPSR)  returns 0x01000000 (0000ms, 0355ms total)
T1C64 000:489 JLINK_ReadMem (0x000008E8, 0x003C Bytes, ...) -- CPU_ReadMem(128 bytes @ 0x000008C0) -- Updating C cache (128 bytes @ 0x000008C0) -- Read from C cache (60 bytes @ 0x000008E8) - Data: 06 4B 18 47 06 4A 10 60 01 68 81 F3 08 88 40 68 ...  returns 0x00 (0003ms, 0358ms total)
T1C64 000:569 JLINK_ReadMem (0x40012000, 0x0010 Bytes, ...) -- CPU_ReadMem(16 bytes @ 0x40012000) - Data: 00 00 00 00 00 00 00 00 00 00 00 00 00 00 00 00  returns 0x00 (0002ms, 0360ms total)
T1C64 000:571 JLINK_ReadMem (0x40012010, 0x0004 Bytes, ...) -- CPU_ReadMem(4 bytes @ 0x40012010) - Data: 00 00 00 00  returns 0x00 (0001ms, 0361ms total)
T1C64 000:572 JLINK_ReadMem (0x40012100, 0x0010 Bytes, ...) -- CPU_ReadMem(16 bytes @ 0x40012100) - Data: 00 00 00 00 00 00 00 00 00 00 00 00 00 00 00 00  returns 0x00 (0000ms, 0361ms total)
T1C64 000:572 JLINK_ReadMem (0x40012110, 0x0004 Bytes, ...) -- CPU_ReadMem(4 bytes @ 0x40012110) - Data: 00 00 00 00  returns 0x00 (0000ms, 0361ms total)
T1C64 000:572 JLINK_ReadMem (0x40012200, 0x0004 Bytes, ...) -- CPU_ReadMem(4 bytes @ 0x40012200) - Data: 00 00 00 00  returns 0x00 (0002ms, 0363ms total)
T1C64 000:574 JLINK_ReadMem (0x40012304, 0x0004 Bytes, ...) -- CPU_ReadMem(4 bytes @ 0x40012304) - Data: 00 00 00 00  returns 0x00 (0000ms, 0363ms total)
T1C64 000:574 JLINK_ReadMem (0x40012308, 0x0004 Bytes, ...) -- CPU_ReadMem(4 bytes @ 0x40012308) - Data: 00 00 00 00  returns 0x00 (0000ms, 0363ms total)
T1C64 000:574 JLINK_ReadMem (0x40012500, 0x0028 Bytes, ...) -- CPU_ReadMem(40 bytes @ 0x40012500) - Data: 00 00 00 00 00 00 00 00 00 00 00 00 00 00 00 00 ...  returns 0x00 (0002ms, 0365ms total)
T1C64 000:576 JLINK_ReadMem (0x40012528, 0x0004 Bytes, ...) -- CPU_ReadMem(4 bytes @ 0x40012528) - Data: 00 00 00 00  returns 0x00 (0001ms, 0366ms total)
T1C64 000:577 JLINK_ReadMem (0x40012540, 0x0008 Bytes, ...) -- CPU_ReadMem(8 bytes @ 0x40012540) - Data: 10 00 00 00 00 00 00 00  returns 0x00 (0001ms, 0367ms total)
T1C64 000:578 JLINK_ReadMem (0x40012548, 0x0004 Bytes, ...) -- CPU_ReadMem(4 bytes @ 0x40012548) - Data: 00 00 00 00  returns 0x00 (0000ms, 0367ms total)
T35F8 001:610 JLINK_SetBPEx(Addr = 0x0002CFF8, Type = 0xFFFFFFF2)  returns 0x00000001 (0000ms, 0367ms total)
T35F8 001:610 JLINK_Go() -- CPU_WriteMem(4 bytes @ 0xE0002000) -- CPU_ReadMem(4 bytes @ 0xE0001000) -- CPU_WriteMem(4 bytes @ 0xE0002008) -- CPU_WriteMem(4 bytes @ 0xE000200C) -- CPU_WriteMem(4 bytes @ 0xE0002010) -- CPU_WriteMem(4 bytes @ 0xE0002014) -- CPU_WriteMem(4 bytes @ 0xE0002018) -- CPU_WriteMem(4 bytes @ 0xE000201C) -- CPU_WriteMem(4 bytes @ 0xE0001004) (0006ms, 0373ms total)
T35F8 001:717 JLINK_IsHalted()  returns TRUE (0006ms, 0379ms total)
T35F8 001:723 JLINK_Halt()  returns 0x00 (0000ms, 0373ms total)
T35F8 001:723 JLINK_IsHalted()  returns TRUE (0000ms, 0373ms total)
T35F8 001:723 JLINK_IsHalted()  returns TRUE (0000ms, 0373ms total)
T35F8 001:723 JLINK_IsHalted()  returns TRUE (0000ms, 0373ms total)
T35F8 001:723 JLINK_ReadReg(R15 (PC))  returns 0x0002CFF8 (0000ms, 0373ms total)
T35F8 001:723 JLINK_ReadReg(XPSR)  returns 0x61000000 (0000ms, 0373ms total)
T35F8 001:723 JLINK_ClrBPEx(BPHandle = 0x00000001)  returns 0x00 (0000ms, 0373ms total)
T35F8 001:723 JLINK_ReadMemU32(0xE000ED30, 0x0001 Items, ...) -- CPU_ReadMem(4 bytes @ 0xE000ED30) - Data: 02 00 00 00  returns 1 (0000ms, 0373ms total)
T35F8 001:723 JLINK_ReadMemU32(0xE0001028, 0x0001 Items, ...) -- CPU_ReadMem(4 bytes @ 0xE0001028) - Data: 00 00 00 00  returns 1 (0001ms, 0374ms total)
T35F8 001:724 JLINK_ReadMemU32(0xE0001038, 0x0001 Items, ...) -- CPU_ReadMem(4 bytes @ 0xE0001038) - Data: 00 02 00 00  returns 1 (0000ms, 0374ms total)
T35F8 001:724 JLINK_ReadMemU32(0xE0001048, 0x0001 Items, ...) -- CPU_ReadMem(4 bytes @ 0xE0001048) - Data: 00 00 00 00  returns 1 (0001ms, 0375ms total)
T35F8 001:725 JLINK_ReadMemU32(0xE0001058, 0x0001 Items, ...) -- CPU_ReadMem(4 bytes @ 0xE0001058) - Data: 00 00 00 00  returns 1 (0000ms, 0375ms total)
T35F8 001:725 JLINK_ReadReg(R0)  returns 0x0002CFF9 (0000ms, 0375ms total)
T35F8 001:725 JLINK_ReadReg(R1)  returns 0x20005FC8 (0000ms, 0375ms total)
T35F8 001:725 JLINK_ReadReg(R2)  returns 0x00000000 (0000ms, 0375ms total)
T35F8 001:725 JLINK_ReadReg(R3)  returns 0x000279A1 (0000ms, 0375ms total)
T35F8 001:725 JLINK_ReadReg(R4)  returns 0x00037448 (0000ms, 0375ms total)
T35F8 001:725 JLINK_ReadReg(R5)  returns 0x00037448 (0000ms, 0375ms total)
T35F8 001:725 JLINK_ReadReg(R6)  returns 0x00000000 (0000ms, 0375ms total)
T35F8 001:725 JLINK_ReadReg(R7)  returns 0x00000000 (0001ms, 0376ms total)
T35F8 001:726 JLINK_ReadReg(R8)  returns 0x00000000 (0000ms, 0376ms total)
T35F8 001:726 JLINK_ReadReg(R9)  returns 0x00000000 (0000ms, 0376ms total)
T35F8 001:726 JLINK_ReadReg(R10)  returns 0x00000000 (0000ms, 0376ms total)
T35F8 001:726 JLINK_ReadReg(R11)  returns 0x00000000 (0000ms, 0376ms total)
T35F8 001:726 JLINK_ReadReg(R12)  returns 0x00000000 (0000ms, 0376ms total)
T35F8 001:726 JLINK_ReadReg(R13 (SP))  returns 0x20005FC8 (0000ms, 0376ms total)
T35F8 001:726 JLINK_ReadReg(R14)  returns 0x00026BDD (0000ms, 0376ms total)
T35F8 001:726 JLINK_ReadReg(R15 (PC))  returns 0x0002CFF8 (0000ms, 0376ms total)
T35F8 001:726 JLINK_ReadReg(XPSR)  returns 0x61000000 (0000ms, 0376ms total)
T35F8 001:726 JLINK_ReadReg(MSP)  returns 0x20005FC8 (0000ms, 0376ms total)
T35F8 001:726 JLINK_ReadReg(PSP)  returns 0x00000000 (0000ms, 0376ms total)
T35F8 001:726 JLINK_ReadReg(CFBP)  returns 0x00000000 (0000ms, 0376ms total)
T35F8 001:726 JLINK_ReadReg(FPSCR)  returns 0x00000000 (0010ms, 0386ms total)
T35F8 001:736 JLINK_ReadReg(FPS0)  returns 0x00000000 (0000ms, 0386ms total)
T35F8 001:736 JLINK_ReadReg(FPS1)  returns 0x00000000 (0000ms, 0386ms total)
T35F8 001:736 JLINK_ReadReg(FPS2)  returns 0x00000000 (0000ms, 0386ms total)
T35F8 001:736 JLINK_ReadReg(FPS3)  returns 0x00000000 (0000ms, 0386ms total)
T35F8 001:736 JLINK_ReadReg(FPS4)  returns 0x00000000 (0000ms, 0386ms total)
T35F8 001:736 JLINK_ReadReg(FPS5)  returns 0x00000000 (0000ms, 0386ms total)
T35F8 001:736 JLINK_ReadReg(FPS6)  returns 0x00000000 (0000ms, 0386ms total)
T35F8 001:736 JLINK_ReadReg(FPS7)  returns 0x00000000 (0000ms, 0386ms total)
T35F8 001:736 JLINK_ReadReg(FPS8)  returns 0x00000000 (0000ms, 0386ms total)
T35F8 001:736 JLINK_ReadReg(FPS9)  returns 0x00000000 (0000ms, 0386ms total)
T35F8 001:736 JLINK_ReadReg(FPS10)  returns 0x00000000 (0000ms, 0386ms total)
T35F8 001:736 JLINK_ReadReg(FPS11)  returns 0x00000000 (0000ms, 0386ms total)
T35F8 001:736 JLINK_ReadReg(FPS12)  returns 0x00000000 (0000ms, 0386ms total)
T35F8 001:736 JLINK_ReadReg(FPS13)  returns 0x00000000 (0000ms, 0386ms total)
T35F8 001:736 JLINK_ReadReg(FPS14)  returns 0x00000000 (0000ms, 0386ms total)
T35F8 001:736 JLINK_ReadReg(FPS15)  returns 0x00000000 (0000ms, 0386ms total)
T35F8 001:736 JLINK_ReadReg(FPS16)  returns 0x00000000 (0000ms, 0386ms total)
T35F8 001:736 JLINK_ReadReg(FPS17)  returns 0x00000000 (0000ms, 0386ms total)
T35F8 001:736 JLINK_ReadReg(FPS18)  returns 0x00000000 (0000ms, 0386ms total)
T35F8 001:736 JLINK_ReadReg(FPS19)  returns 0x00000000 (0000ms, 0386ms total)
T35F8 001:736 JLINK_ReadReg(FPS20)  returns 0x00000000 (0000ms, 0386ms total)
T35F8 001:736 JLINK_ReadReg(FPS21)  returns 0x00000000 (0000ms, 0386ms total)
T35F8 001:736 JLINK_ReadReg(FPS22)  returns 0x00000000 (0000ms, 0386ms total)
T35F8 001:736 JLINK_ReadReg(FPS23)  returns 0x00000000 (0000ms, 0386ms total)
T35F8 001:736 JLINK_ReadReg(FPS24)  returns 0x00000000 (0000ms, 0386ms total)
T35F8 001:736 JLINK_ReadReg(FPS25)  returns 0x00000000 (0000ms, 0386ms total)
T35F8 001:736 JLINK_ReadReg(FPS26)  returns 0x00000000 (0000ms, 0386ms total)
T35F8 001:736 JLINK_ReadReg(FPS27)  returns 0x00000000 (0000ms, 0386ms total)
T35F8 001:736 JLINK_ReadReg(FPS28)  returns 0x00000000 (0000ms, 0386ms total)
T35F8 001:736 JLINK_ReadReg(FPS29)  returns 0x00000000 (0000ms, 0386ms total)
T35F8 001:736 JLINK_ReadReg(FPS30)  returns 0x00000000 (0000ms, 0386ms total)
T35F8 001:736 JLINK_ReadReg(FPS31)  returns 0x00000000 (0000ms, 0386ms total)
T1C64 001:738 JLINK_ReadMem (0x20002AAC, 0x0004 Bytes, ...) -- CPU_ReadMem(64 bytes @ 0x20002A80) -- Updating C cache (64 bytes @ 0x20002A80) -- Read from C cache (4 bytes @ 0x20002AAC) - Data: 00 00 00 00  returns 0x00 (0001ms, 0387ms total)
T1C64 001:739 JLINK_ReadMem (0x20002AB0, 0x0004 Bytes, ...) -- Read from C cache (4 bytes @ 0x20002AB0) - Data: 00 00 00 00  returns 0x00 (0000ms, 0387ms total)
T1C64 001:739 JLINK_ReadMem (0x00000000, 0x0001 Bytes, ...) -- CPU_ReadMem(64 bytes @ 0x00000000) -- Updating C cache (64 bytes @ 0x00000000) -- Read from C cache (1 bytes @ 0x00000000) - Data: 00  returns 0x00 (0001ms, 0388ms total)
T1C64 001:740 JLINK_ReadMem (0x00000000, 0x0004 Bytes, ...) -- Read from C cache (4 bytes @ 0x00000000) - Data: 00 04 00 20  returns 0x00 (0000ms, 0388ms total)
T1C64 001:745 JLINK_ReadMemU32(0xE0001004, 0x0001 Items, ...) -- CPU_ReadMem(4 bytes @ 0xE0001004) - Data: 1B 8C 00 00  returns 1 (0002ms, 0390ms total)
T1C64 001:747 JLINK_ReadMem (0x40012000, 0x0010 Bytes, ...) -- CPU_ReadMem(16 bytes @ 0x40012000) - Data: 00 00 00 00 00 00 00 00 00 00 00 00 00 00 00 00  returns 0x00 (0001ms, 0391ms total)
T1C64 001:748 JLINK_ReadMem (0x40012010, 0x0004 Bytes, ...) -- CPU_ReadMem(4 bytes @ 0x40012010) - Data: 00 00 00 00  returns 0x00 (0000ms, 0391ms total)
T1C64 001:748 JLINK_ReadMem (0x40012100, 0x0010 Bytes, ...) -- CPU_ReadMem(16 bytes @ 0x40012100) - Data: 00 00 00 00 00 00 00 00 00 00 00 00 00 00 00 00  returns 0x00 (0001ms, 0392ms total)
T1C64 001:749 JLINK_ReadMem (0x40012110, 0x0004 Bytes, ...) -- CPU_ReadMem(4 bytes @ 0x40012110) - Data: 00 00 00 00  returns 0x00 (0000ms, 0392ms total)
T1C64 001:749 JLINK_ReadMem (0x40012200, 0x0004 Bytes, ...) -- CPU_ReadMem(4 bytes @ 0x40012200) - Data: 00 00 00 00  returns 0x00 (0000ms, 0392ms total)
T1C64 001:749 JLINK_ReadMem (0x40012304, 0x0004 Bytes, ...) -- CPU_ReadMem(4 bytes @ 0x40012304) - Data: 00 00 00 00  returns 0x00 (0000ms, 0392ms total)
T1C64 001:749 JLINK_ReadMem (0x40012308, 0x0004 Bytes, ...) -- CPU_ReadMem(4 bytes @ 0x40012308) - Data: 00 00 00 00  returns 0x00 (0001ms, 0393ms total)
T1C64 001:750 JLINK_ReadMem (0x40012500, 0x0028 Bytes, ...) -- CPU_ReadMem(40 bytes @ 0x40012500) - Data: 00 00 00 00 00 00 00 00 00 00 00 00 00 00 00 00 ...  returns 0x00 (0001ms, 0394ms total)
T1C64 001:751 JLINK_ReadMem (0x40012528, 0x0004 Bytes, ...) -- CPU_ReadMem(4 bytes @ 0x40012528) - Data: 00 00 00 00  returns 0x00 (0000ms, 0394ms total)
T1C64 001:751 JLINK_ReadMem (0x40012540, 0x0008 Bytes, ...) -- CPU_ReadMem(8 bytes @ 0x40012540) - Data: 10 00 00 00 00 00 00 00  returns 0x00 (0001ms, 0395ms total)
T1C64 001:752 JLINK_ReadMem (0x40012548, 0x0004 Bytes, ...) -- CPU_ReadMem(4 bytes @ 0x40012548) - Data: 00 00 00 00  returns 0x00 (0000ms, 0395ms total)
T1C64 001:755 JLINK_ReadMem (0x0002CF04, 0x003C Bytes, ...) -- CPU_ReadMem(64 bytes @ 0x0002CF00) -- Updating C cache (64 bytes @ 0x0002CF00) -- Read from C cache (60 bytes @ 0x0002CF04) - Data: 05 49 42 68 4A 60 02 88 0A 81 28 31 82 68 4A 60 ...  returns 0x00 (0002ms, 0397ms total)
T1C64 001:757 JLINK_ReadMem (0x0002CF40, 0x003C Bytes, ...) -- CPU_ReadMem(64 bytes @ 0x0002CF40) -- Updating C cache (64 bytes @ 0x0002CF40) -- Read from C cache (60 bytes @ 0x0002CF40) - Data: 69 46 26 48 FF F7 0E FF 18 B1 25 A2 55 21 F9 F7 ...  returns 0x00 (0001ms, 0398ms total)
T1C64 001:758 JLINK_ReadMem (0x0002CF7C, 0x003C Bytes, ...) -- CPU_ReadMem(64 bytes @ 0x0002CF80) -- Updating C cache (64 bytes @ 0x0002CF80) -- Read from C cache (60 bytes @ 0x0002CF7C) - Data: 69 46 28 30 FF F7 F0 FE 18 B1 16 A2 65 21 F9 F7 ...  returns 0x00 (0001ms, 0399ms total)
T1C64 001:759 JLINK_ReadMem (0x0002CFB8, 0x003C Bytes, ...) -- CPU_ReadMem(64 bytes @ 0x0002CFC0) -- Updating C cache (64 bytes @ 0x0002CFC0) -- Read from C cache (60 bytes @ 0x0002CFB8) - Data: 08 48 28 30 C1 68 FF F7 49 FF 00 28 03 D0 06 A2 ...  returns 0x00 (0002ms, 0401ms total)
T1C64 001:761 JLINK_ReadMem (0x0002CFF6, 0x0002 Bytes, ...) -- Read from C cache (2 bytes @ 0x0002CFF6) - Data: 00 00  returns 0x00 (0000ms, 0401ms total)
T1C64 001:761 JLINK_ReadMem (0x0002CFF8, 0x0008 Bytes, ...) -- Read from C cache (8 bytes @ 0x0002CFF8) - Data: 2D ED 08 8B 88 B0 FC F7  returns 0x00 (0000ms, 0401ms total)
T1C64 001:761 JLINK_ReadMem (0x0002D000, 0x0034 Bytes, ...) -- CPU_ReadMem(64 bytes @ 0x0002D000) -- Updating C cache (64 bytes @ 0x0002D000) -- Read from C cache (52 bytes @ 0x0002D000) - Data: 73 F8 FB F7 5B F8 18 B1 A3 4A 99 21 F9 F7 02 F9 ...  returns 0x00 (0001ms, 0402ms total)
T1C64 102:473 JLINK_ReadMem (0x0002A1A0, 0x003C Bytes, ...) -- CPU_ReadMem(128 bytes @ 0x0002A180) -- Updating C cache (128 bytes @ 0x0002A180) -- Read from C cache (60 bytes @ 0x0002A1A0) - Data: FF F7 1E FF 3D 48 01 F0 C7 FD 3D 4C 03 25 3D A1 ...  returns 0x00 (0003ms, 0405ms total)
T1C64 111:486 JLINK_ReadMem (0x00029FEE, 0x0002 Bytes, ...) -- CPU_ReadMem(64 bytes @ 0x00029FC0) -- Updating C cache (64 bytes @ 0x00029FC0) -- Read from C cache (2 bytes @ 0x00029FEE) - Data: 06 20  returns 0x00 (0001ms, 0406ms total)
T1C64 111:487 JLINK_ReadMem (0x00029FF0, 0x0010 Bytes, ...) -- Read from C cache (16 bytes @ 0x00029FF0) - Data: 01 90 08 20 02 90 00 20 8D F8 18 00 03 20 00 90  returns 0x00 (0000ms, 0406ms total)
T1C64 111:487 JLINK_ReadMem (0x0002A000, 0x002C Bytes, ...) -- CPU_ReadMem(64 bytes @ 0x0002A000) -- Updating C cache (64 bytes @ 0x0002A000) -- Read from C cache (44 bytes @ 0x0002A000) - Data: 07 48 01 23 1A 46 01 A9 1C 38 04 F0 29 FC 00 28 ...  returns 0x00 (0001ms, 0407ms total)
T35F8 206:298 JLINK_SetBPEx(Addr = 0x00029FFC, Type = 0xFFFFFFF2)  returns 0x00000002 (0000ms, 0407ms total)
T35F8 206:298 JLINK_Go() -- CPU_WriteMem(4 bytes @ 0xE0002000) -- CPU_ReadMem(4 bytes @ 0xE0001000) -- CPU_WriteMem(4 bytes @ 0xE0002008) (0003ms, 0410ms total)
T35F8 206:401 JLINK_IsHalted()  returns FALSE (0001ms, 0411ms total)
T35F8 206:502 JLINK_IsHalted()  returns FALSE (0001ms, 0411ms total)
T35F8 206:604 JLINK_IsHalted()  returns FALSE (0000ms, 0410ms total)
T35F8 206:705 JLINK_IsHalted()  returns FALSE (0000ms, 0410ms total)
T35F8 206:806 JLINK_IsHalted()  returns FALSE (0000ms, 0410ms total)
T35F8 206:907 JLINK_IsHalted()  returns TRUE (0006ms, 0416ms total)
T35F8 206:913 JLINK_Halt()  returns 0x00 (0000ms, 0410ms total)
T35F8 206:913 JLINK_IsHalted()  returns TRUE (0000ms, 0410ms total)
T35F8 206:913 JLINK_IsHalted()  returns TRUE (0000ms, 0410ms total)
T35F8 206:913 JLINK_IsHalted()  returns TRUE (0000ms, 0410ms total)
T35F8 206:913 JLINK_ReadReg(R15 (PC))  returns 0x00029FFC (0000ms, 0410ms total)
T35F8 206:913 JLINK_ReadReg(XPSR)  returns 0x41000000 (0000ms, 0410ms total)
T35F8 206:913 JLINK_ClrBPEx(BPHandle = 0x00000002)  returns 0x00 (0000ms, 0410ms total)
T35F8 206:913 JLINK_ReadMemU32(0xE000ED30, 0x0001 Items, ...) -- CPU_ReadMem(4 bytes @ 0xE000ED30) - Data: 02 00 00 00  returns 1 (0000ms, 0410ms total)
T35F8 206:913 JLINK_ReadMemU32(0xE0001028, 0x0001 Items, ...) -- CPU_ReadMem(4 bytes @ 0xE0001028) - Data: 00 00 00 00  returns 1 (0001ms, 0411ms total)
T35F8 206:914 JLINK_ReadMemU32(0xE0001038, 0x0001 Items, ...) -- CPU_ReadMem(4 bytes @ 0xE0001038) - Data: 00 02 00 00  returns 1 (0001ms, 0412ms total)
T35F8 206:915 JLINK_ReadMemU32(0xE0001048, 0x0001 Items, ...) -- CPU_ReadMem(4 bytes @ 0xE0001048) - Data: 00 00 00 00  returns 1 (0000ms, 0412ms total)
T35F8 206:915 JLINK_ReadMemU32(0xE0001058, 0x0001 Items, ...) -- CPU_ReadMem(4 bytes @ 0xE0001058) - Data: 00 00 00 00  returns 1 (0001ms, 0413ms total)
T35F8 206:916 JLINK_ReadReg(R0)  returns 0x00000000 (0000ms, 0413ms total)
T35F8 206:916 JLINK_ReadReg(R1)  returns 0x0003594C (0000ms, 0413ms total)
T35F8 206:916 JLINK_ReadReg(R2)  returns 0xFFFFFFFF (0000ms, 0413ms total)
T35F8 206:916 JLINK_ReadReg(R3)  returns 0x00000107 (0000ms, 0413ms total)
T35F8 206:916 JLINK_ReadReg(R4)  returns 0x00037448 (0000ms, 0413ms total)
T35F8 206:916 JLINK_ReadReg(R5)  returns 0x00037448 (0000ms, 0413ms total)
T35F8 206:916 JLINK_ReadReg(R6)  returns 0x00000000 (0000ms, 0413ms total)
T35F8 206:916 JLINK_ReadReg(R7)  returns 0x00000000 (0000ms, 0413ms total)
T35F8 206:916 JLINK_ReadReg(R8)  returns 0x00000000 (0000ms, 0413ms total)
T35F8 206:916 JLINK_ReadReg(R9)  returns 0x00000000 (0000ms, 0413ms total)
T35F8 206:916 JLINK_ReadReg(R10)  returns 0x00000000 (0000ms, 0413ms total)
T35F8 206:916 JLINK_ReadReg(R11)  returns 0x00000000 (0000ms, 0413ms total)
T35F8 206:916 JLINK_ReadReg(R12)  returns 0x00000000 (0000ms, 0413ms total)
T35F8 206:916 JLINK_ReadReg(R13 (SP))  returns 0x20005F38 (0000ms, 0413ms total)
T35F8 206:916 JLINK_ReadReg(R14)  returns 0x00029FEF (0000ms, 0413ms total)
T35F8 206:916 JLINK_ReadReg(R15 (PC))  returns 0x00029FFC (0000ms, 0413ms total)
T35F8 206:916 JLINK_ReadReg(XPSR)  returns 0x41000000 (0000ms, 0413ms total)
T35F8 206:916 JLINK_ReadReg(MSP)  returns 0x20005F38 (0000ms, 0413ms total)
T35F8 206:916 JLINK_ReadReg(PSP)  returns 0x00000000 (0000ms, 0413ms total)
T35F8 206:916 JLINK_ReadReg(CFBP)  returns 0x04000000 (0000ms, 0413ms total)
T35F8 206:916 JLINK_ReadReg(FPSCR)  returns 0x00000000 (0010ms, 0423ms total)
T35F8 206:926 JLINK_ReadReg(FPS0)  returns 0x00000000 (0000ms, 0423ms total)
T35F8 206:926 JLINK_ReadReg(FPS1)  returns 0x00000000 (0000ms, 0423ms total)
T35F8 206:926 JLINK_ReadReg(FPS2)  returns 0x00000000 (0000ms, 0423ms total)
T35F8 206:926 JLINK_ReadReg(FPS3)  returns 0x00000000 (0000ms, 0423ms total)
T35F8 206:926 JLINK_ReadReg(FPS4)  returns 0x00000000 (0000ms, 0423ms total)
T35F8 206:926 JLINK_ReadReg(FPS5)  returns 0x00000000 (0000ms, 0423ms total)
T35F8 206:926 JLINK_ReadReg(FPS6)  returns 0x00000000 (0000ms, 0423ms total)
T35F8 206:926 JLINK_ReadReg(FPS7)  returns 0x00000000 (0000ms, 0423ms total)
T35F8 206:926 JLINK_ReadReg(FPS8)  returns 0x00000000 (0000ms, 0423ms total)
T35F8 206:926 JLINK_ReadReg(FPS9)  returns 0x00000000 (0000ms, 0423ms total)
T35F8 206:926 JLINK_ReadReg(FPS10)  returns 0x00000000 (0000ms, 0423ms total)
T35F8 206:926 JLINK_ReadReg(FPS11)  returns 0x00000000 (0000ms, 0423ms total)
T35F8 206:926 JLINK_ReadReg(FPS12)  returns 0x00000000 (0000ms, 0423ms total)
T35F8 206:926 JLINK_ReadReg(FPS13)  returns 0x00000000 (0000ms, 0423ms total)
T35F8 206:926 JLINK_ReadReg(FPS14)  returns 0x00000000 (0000ms, 0423ms total)
T35F8 206:926 JLINK_ReadReg(FPS15)  returns 0x00000000 (0000ms, 0423ms total)
T35F8 206:926 JLINK_ReadReg(FPS16)  returns 0x00000000 (0000ms, 0423ms total)
T35F8 206:926 JLINK_ReadReg(FPS17)  returns 0x00000000 (0000ms, 0423ms total)
T35F8 206:926 JLINK_ReadReg(FPS18)  returns 0x00000000 (0000ms, 0423ms total)
T35F8 206:926 JLINK_ReadReg(FPS19)  returns 0x00000000 (0000ms, 0423ms total)
T35F8 206:926 JLINK_ReadReg(FPS20)  returns 0x00000000 (0000ms, 0423ms total)
T35F8 206:926 JLINK_ReadReg(FPS21)  returns 0x00000000 (0000ms, 0423ms total)
T35F8 206:926 JLINK_ReadReg(FPS22)  returns 0x00000000 (0000ms, 0423ms total)
T35F8 206:926 JLINK_ReadReg(FPS23)  returns 0x00000000 (0000ms, 0423ms total)
T35F8 206:926 JLINK_ReadReg(FPS24)  returns 0x00000000 (0000ms, 0423ms total)
T35F8 206:926 JLINK_ReadReg(FPS25)  returns 0x00000000 (0000ms, 0423ms total)
T35F8 206:926 JLINK_ReadReg(FPS26)  returns 0x00000000 (0000ms, 0423ms total)
T35F8 206:926 JLINK_ReadReg(FPS27)  returns 0x00000000 (0000ms, 0423ms total)
T35F8 206:926 JLINK_ReadReg(FPS28)  returns 0x00000000 (0000ms, 0423ms total)
T35F8 206:926 JLINK_ReadReg(FPS29)  returns 0x00000000 (0000ms, 0423ms total)
T35F8 206:926 JLINK_ReadReg(FPS30)  returns 0x00000000 (0000ms, 0423ms total)
T35F8 206:926 JLINK_ReadReg(FPS31)  returns 0x00000000 (0000ms, 0423ms total)
T1C64 206:926 JLINK_ReadMem (0x20005F5C, 0x0004 Bytes, ...) -- CPU_ReadMem(64 bytes @ 0x20005F40) -- Updating C cache (64 bytes @ 0x20005F40) -- Read from C cache (4 bytes @ 0x20005F5C) - Data: A5 A1 02 00  returns 0x00 (0002ms, 0425ms total)
T1C64 206:928 JLINK_ReadMem (0x20005F84, 0x0004 Bytes, ...) -- CPU_ReadMem(64 bytes @ 0x20005F80) -- Updating C cache (64 bytes @ 0x20005F80) -- Read from C cache (4 bytes @ 0x20005F84) - Data: 2F D0 02 00  returns 0x00 (0001ms, 0426ms total)
T1C64 206:929 JLINK_ReadMem (0x20005F78, 0x0004 Bytes, ...) -- Read from C cache (4 bytes @ 0x20005F78) - Data: 48 74 03 00  returns 0x00 (0000ms, 0426ms total)
T1C64 206:929 JLINK_ReadMem (0x20005F7C, 0x0004 Bytes, ...) -- Read from C cache (4 bytes @ 0x20005F7C) - Data: 48 74 03 00  returns 0x00 (0000ms, 0426ms total)
T1C64 206:929 JLINK_ReadMem (0x20005F80, 0x0004 Bytes, ...) -- Read from C cache (4 bytes @ 0x20005F80) - Data: 00 00 00 00  returns 0x00 (0000ms, 0426ms total)
T1C64 206:929 JLINK_ReadMem (0x00000000, 0x0004 Bytes, ...) -- CPU_ReadMem(64 bytes @ 0x00000000) -- Updating C cache (64 bytes @ 0x00000000) -- Read from C cache (4 bytes @ 0x00000000) - Data: 00 04 00 20  returns 0x00 (0001ms, 0427ms total)
T1C64 206:937 JLINK_ReadMem (0x20002AAC, 0x0004 Bytes, ...) -- CPU_ReadMem(64 bytes @ 0x20002A80) -- Updating C cache (64 bytes @ 0x20002A80) -- Read from C cache (4 bytes @ 0x20002AAC) - Data: 00 00 00 00  returns 0x00 (0002ms, 0429ms total)
T1C64 206:939 JLINK_ReadMem (0x20002AB0, 0x0004 Bytes, ...) -- Read from C cache (4 bytes @ 0x20002AB0) - Data: 00 00 00 00  returns 0x00 (0000ms, 0429ms total)
T1C64 206:939 JLINK_ReadMemU32(0xE0001004, 0x0001 Items, ...) -- CPU_ReadMem(4 bytes @ 0xE0001004) - Data: 19 2A 06 02  returns 1 (0001ms, 0430ms total)
T1C64 206:940 JLINK_ReadMem (0x40012000, 0x0010 Bytes, ...) -- CPU_ReadMem(16 bytes @ 0x40012000) - Data: 00 00 00 00 00 00 00 00 00 00 00 00 00 00 00 00  returns 0x00 (0000ms, 0430ms total)
T1C64 206:940 JLINK_ReadMem (0x40012010, 0x0004 Bytes, ...) -- CPU_ReadMem(4 bytes @ 0x40012010) - Data: 00 00 00 00  returns 0x00 (0000ms, 0430ms total)
T1C64 206:940 JLINK_ReadMem (0x40012100, 0x0010 Bytes, ...) -- CPU_ReadMem(16 bytes @ 0x40012100) - Data: 00 00 00 00 00 00 00 00 00 00 00 00 00 00 00 00  returns 0x00 (0001ms, 0431ms total)
T1C64 206:941 JLINK_ReadMem (0x40012110, 0x0004 Bytes, ...) -- CPU_ReadMem(4 bytes @ 0x40012110) - Data: 00 00 00 00  returns 0x00 (0000ms, 0431ms total)
T1C64 206:941 JLINK_ReadMem (0x40012200, 0x0004 Bytes, ...) -- CPU_ReadMem(4 bytes @ 0x40012200) - Data: 00 00 00 00  returns 0x00 (0001ms, 0432ms total)
T1C64 206:942 JLINK_ReadMem (0x40012304, 0x0004 Bytes, ...) -- CPU_ReadMem(4 bytes @ 0x40012304) - Data: 00 00 00 00  returns 0x00 (0000ms, 0432ms total)
T1C64 206:942 JLINK_ReadMem (0x40012308, 0x0004 Bytes, ...) -- CPU_ReadMem(4 bytes @ 0x40012308) - Data: 00 00 00 00  returns 0x00 (0001ms, 0433ms total)
T1C64 206:943 JLINK_ReadMem (0x40012500, 0x0028 Bytes, ...) -- CPU_ReadMem(40 bytes @ 0x40012500) - Data: 00 00 00 00 00 00 00 00 00 00 00 00 00 00 00 00 ...  returns 0x00 (0002ms, 0435ms total)
T1C64 206:945 JLINK_ReadMem (0x40012528, 0x0004 Bytes, ...) -- CPU_ReadMem(4 bytes @ 0x40012528) - Data: 00 00 00 00  returns 0x00 (0000ms, 0435ms total)
T1C64 206:945 JLINK_ReadMem (0x40012540, 0x0008 Bytes, ...) -- CPU_ReadMem(8 bytes @ 0x40012540) - Data: 10 00 00 00 00 00 00 00  returns 0x00 (0001ms, 0436ms total)
T1C64 206:946 JLINK_ReadMem (0x40012548, 0x0004 Bytes, ...) -- CPU_ReadMem(4 bytes @ 0x40012548) - Data: 00 00 00 00  returns 0x00 (0000ms, 0436ms total)
T1C64 206:948 JLINK_ReadMem (0x00029FF4, 0x000C Bytes, ...) -- CPU_ReadMem(64 bytes @ 0x00029FC0) -- Updating C cache (64 bytes @ 0x00029FC0) -- Read from C cache (12 bytes @ 0x00029FF4) - Data: 02 90 00 20 8D F8 18 00 03 20 00 90  returns 0x00 (0001ms, 0437ms total)
T1C64 206:949 JLINK_ReadMem (0x0002A000, 0x0030 Bytes, ...) -- CPU_ReadMem(64 bytes @ 0x0002A000) -- Updating C cache (64 bytes @ 0x0002A000) -- Read from C cache (48 bytes @ 0x0002A000) - Data: 07 48 01 23 1A 46 01 A9 1C 38 04 F0 29 FC 00 28 ...  returns 0x00 (0002ms, 0439ms total)
T1C64 223:192 JLINK_ReadMem (0x00035910, 0x0004 Bytes, ...) -- CPU_ReadMem(64 bytes @ 0x00035900) -- Updating C cache (64 bytes @ 0x00035900) -- Read from C cache (4 bytes @ 0x00035910) - Data: 20 62 03 00  returns 0x00 (0002ms, 0441ms total)
T1C64 223:194 JLINK_ReadMem (0x00035914, 0x0004 Bytes, ...) -- Read from C cache (4 bytes @ 0x00035914) - Data: F8 58 03 00  returns 0x00 (0000ms, 0441ms total)
T1C64 223:194 JLINK_ReadMem (0x00035918, 0x0004 Bytes, ...) -- Read from C cache (4 bytes @ 0x00035918) - Data: 1C 32 00 20  returns 0x00 (0000ms, 0441ms total)
T1C64 223:194 JLINK_ReadMem (0x0003591C, 0x0004 Bytes, ...) -- Read from C cache (4 bytes @ 0x0003591C) - Data: 38 2B 00 20  returns 0x00 (0000ms, 0441ms total)
T1C64 223:194 JLINK_ReadMem (0x00035920, 0x0004 Bytes, ...) -- Read from C cache (4 bytes @ 0x00035920) - Data: 20 2B 00 20  returns 0x00 (0000ms, 0441ms total)
T1C64 223:194 JLINK_ReadMem (0x00035924, 0x0004 Bytes, ...) -- Read from C cache (4 bytes @ 0x00035924) - Data: 60 75 03 00  returns 0x00 (0000ms, 0441ms total)
T1C64 223:194 JLINK_ReadMem (0x00035928, 0x0001 Bytes, ...) -- Read from C cache (1 bytes @ 0x00035928) - Data: 0D  returns 0x00 (0000ms, 0441ms total)
T1C64 223:662 JLINK_ReadMem (0x20005F3C, 0x0004 Bytes, ...) -- CPU_ReadMem(64 bytes @ 0x20005F00) -- Updating C cache (64 bytes @ 0x20005F00) -- Read from C cache (4 bytes @ 0x20005F3C) - Data: 06 00 00 00  returns 0x00 (0001ms, 0442ms total)
T1C64 223:663 JLINK_ReadMem (0x20005F40, 0x0004 Bytes, ...) -- Read from C cache (4 bytes @ 0x20005F40) - Data: 08 00 00 00  returns 0x00 (0000ms, 0442ms total)
T1C64 223:663 JLINK_ReadMem (0x20005F44, 0x0004 Bytes, ...) -- Read from C cache (4 bytes @ 0x20005F44) - Data: FF FF FF FF  returns 0x00 (0000ms, 0442ms total)
T1C64 223:663 JLINK_ReadMem (0x20005F48, 0x0004 Bytes, ...) -- Read from C cache (4 bytes @ 0x20005F48) - Data: FF FF FF FF  returns 0x00 (0000ms, 0442ms total)
T1C64 223:663 JLINK_ReadMem (0x20005F4C, 0x0004 Bytes, ...) -- Read from C cache (4 bytes @ 0x20005F4C) - Data: 00 00 00 00  returns 0x00 (0000ms, 0442ms total)
T1C64 223:663 JLINK_ReadMem (0x20005F50, 0x0001 Bytes, ...) -- Read from C cache (1 bytes @ 0x20005F50) - Data: 00  returns 0x00 (0000ms, 0442ms total)
T1C64 223:663 JLINK_ReadMem (0x20005F51, 0x0001 Bytes, ...) -- Read from C cache (1 bytes @ 0x20005F51) - Data: 00  returns 0x00 (0001ms, 0443ms total)
T1C64 223:664 JLINK_ReadMem (0x20005F54, 0x0004 Bytes, ...) -- Read from C cache (4 bytes @ 0x20005F54) - Data: 00 00 D6 01  returns 0x00 (0000ms, 0443ms total)
T1C64 223:664 JLINK_ReadMem (0x20005F58, 0x0001 Bytes, ...) -- Read from C cache (1 bytes @ 0x20005F58) - Data: 07  returns 0x00 (0000ms, 0443ms total)
T1C64 223:664 JLINK_ReadMem (0x20005F59, 0x0001 Bytes, ...) -- Read from C cache (1 bytes @ 0x20005F59) - Data: 01  returns 0x00 (0000ms, 0443ms total)
T1C64 241:511 JLINK_ReadMem (0x0002E87C, 0x003C Bytes, ...) -- CPU_ReadMem(128 bytes @ 0x0002E840) -- Updating C cache (128 bytes @ 0x0002E840) -- Read from C cache (60 bytes @ 0x0002E87C) - Data: 2A 46 39 46 20 46 00 F0 2D F8 05 00 0C D1 5E B1 ...  returns 0x00 (0003ms, 0446ms total)
T1C64 268:008 JLINK_ReadMem (0x0002D02A, 0x0002 Bytes, ...) -- CPU_ReadMem(64 bytes @ 0x0002D000) -- Updating C cache (64 bytes @ 0x0002D000) -- Read from C cache (2 bytes @ 0x0002D02A) - Data: FD F7  returns 0x00 (0001ms, 0447ms total)
T1C64 268:009 JLINK_ReadMem (0x0002D02C, 0x003C Bytes, ...) -- CPU_ReadMem(64 bytes @ 0x0002D040) -- Updating C cache (64 bytes @ 0x0002D040) -- Read from C cache (60 bytes @ 0x0002D02C) - Data: B7 F8 9F 49 03 20 FC F7 D5 FA 20 B1 97 4A 40 F2 ...  returns 0x00 (0002ms, 0449ms total)
T1C64 270:510 JLINK_ReadMem (0x0002A1A0, 0x003C Bytes, ...) -- CPU_ReadMem(128 bytes @ 0x0002A180) -- Updating C cache (128 bytes @ 0x0002A180) -- Read from C cache (60 bytes @ 0x0002A1A0) - Data: FF F7 1E FF 3D 48 01 F0 C7 FD 3D 4C 03 25 3D A1 ...  returns 0x00 (0002ms, 0451ms total)

                JLINK_RTTERMINAL_Control(Cmd = JLINKARM_RTTERMINAL_CMD_START)  returns 0x00 (0000ms, 0000ms total)
               -- CPU_ReadMem(4096 bytes @ 0x20000000)
                JLINK_RTTERMINAL_Read(BufferIndex = 0, BufferSize = 0x00000400)  returns 0 (0000ms, 0000ms total)
               -- CPU_ReadMem(4096 bytes @ 0x20001000) -- CPU_ReadMem(4096 bytes @ 0x20002000)
                JLINK_RTTERMINAL_Read(BufferIndex = 0, BufferSize = 0x00000400)  returns 0 (0000ms, 0000ms total)
               -- CPU_ReadMem(4096 bytes @ 0x20003000) -- CPU_ReadMem(4096 bytes @ 0x20004000)
                JLINK_RTTERMINAL_Read(BufferIndex = 0, BufferSize = 0x00000400)  returns 0 (0000ms, 0000ms total)
               -- CPU_ReadMem(4096 bytes @ 0x20005000) -- CPU_ReadMem(4096 bytes @ 0x20006000)
                JLINK_RTTERMINAL_Read(BufferIndex = 0, BufferSize = 0x00000400)  returns 0 (0000ms, 0000ms total)
               -- CPU_ReadMem(4096 bytes @ 0x20007000) -- CPU_ReadMem(8 bytes @ 0x20008000) -- CPU_ReadMem(4096 bytes @ 0x20008000) -- CPU_ReadMem(4096 bytes @ 0x20009000)
                JLINK_RTTERMINAL_Read(BufferIndex = 0, BufferSize = 0x00000400)  returns 0 (0000ms, 0000ms total)
               -- CPU_ReadMem(4096 bytes @ 0x2000A000) -- CPU_ReadMem(6 bytes @ 0x2000B000) -- CPU_ReadMem(4096 bytes @ 0x2000B000)
                JLINK_RTTERMINAL_Read(BufferIndex = 0, BufferSize = 0x00000400)  returns 0 (0000ms, 0000ms total)
               -- CPU_ReadMem(4096 bytes @ 0x2000C000) -- CPU_ReadMem(4096 bytes @ 0x2000D000)
                JLINK_RTTERMINAL_Read(BufferIndex = 0, BufferSize = 0x00000400)  returns 0 (0000ms, 0000ms total)
               -- CPU_ReadMem(4096 bytes @ 0x2000E000) -- CPU_ReadMem(4096 bytes @ 0x2000F000)
                JLINK_RTTERMINAL_Read(BufferIndex = 0, BufferSize = 0x00000400)  returns 0 (0000ms, 0000ms total)
               -- CPU_ReadMem(4096 bytes @ 0x20000000) -- CPU_ReadMem(4096 bytes @ 0x20001000)
                JLINK_RTTERMINAL_Read(BufferIndex = 0, BufferSize = 0x00000400)  returns 0 (0000ms, 0000ms total)
               -- CPU_ReadMem(4096 bytes @ 0x20002000) -- CPU_ReadMem(4096 bytes @ 0x20003000)
                JLINK_RTTERMINAL_Read(BufferIndex = 0, BufferSize = 0x00000400)  returns 0 (0000ms, 0000ms total)
               -- CPU_ReadMem(4096 bytes @ 0x20004000) -- CPU_ReadMem(4096 bytes @ 0x20005000)
                JLINK_RTTERMINAL_Read(BufferIndex = 0, BufferSize = 0x00000400)  returns 0 (0000ms, 0000ms total)
               -- CPU_ReadMem(4096 bytes @ 0x20006000) -- CPU_ReadMem(4096 bytes @ 0x20007000) -- CPU_ReadMem(8 bytes @ 0x20008000) -- CPU_ReadMem(4096 bytes @ 0x20008000)
                JLINK_RTTERMINAL_Read(BufferIndex = 0, BufferSize = 0x00000400)  returns 0 (0000ms, 0000ms total)
               -- CPU_ReadMem(4096 bytes @ 0x20009000) -- CPU_ReadMem(4096 bytes @ 0x2000A000) -- CPU_ReadMem(6 bytes @ 0x2000B000)
                JLINK_RTTERMINAL_Read(BufferIndex = 0, BufferSize = 0x00000400)  returns 0 (0000ms, 0000ms total)
               -- CPU_ReadMem(4096 bytes @ 0x2000B000) -- CPU_ReadMem(4096 bytes @ 0x2000C000)
                JLINK_RTTERMINAL_Read(BufferIndex = 0, BufferSize = 0x00000400)  returns 0 (0000ms, 0000ms total)
               -- CPU_ReadMem(4096 bytes @ 0x2000D000) -- CPU_ReadMem(4096 bytes @ 0x2000E000)
                JLINK_RTTERMINAL_Read(BufferIndex = 0, BufferSize = 0x00000400)  returns 0 (0000ms, 0000ms total)
               -- CPU_ReadMem(4096 bytes @ 0x2000F000) -- CPU_ReadMem(4096 bytes @ 0x20000000)
                JLINK_RTTERMINAL_Read(BufferIndex = 0, BufferSize = 0x00000400)  returns 0 (0000ms, 0000ms total)
               -- CPU_ReadMem(4096 bytes @ 0x20001000) -- CPU_ReadMem(4096 bytes @ 0x20002000)
                JLINK_RTTERMINAL_Read(BufferIndex = 0, BufferSize = 0x00000400)  returns 0 (0000ms, 0000ms total)
               -- CPU_ReadMem(4096 bytes @ 0x20003000) -- CPU_ReadMem(4096 bytes @ 0x20004000)
                JLINK_RTTERMINAL_Read(BufferIndex = 0, BufferSize = 0x00000400)  returns 0 (0000ms, 0000ms total)
               -- CPU_ReadMem(4096 bytes @ 0x20005000) -- CPU_ReadMem(4096 bytes @ 0x20006000)
                JLINK_RTTERMINAL_Read(BufferIndex = 0, BufferSize = 0x00000400)  returns 0 (0000ms, 0000ms total)
               -- CPU_ReadMem(4096 bytes @ 0x20007000) -- CPU_ReadMem(8 bytes @ 0x20008000) -- CPU_ReadMem(4096 bytes @ 0x20008000)
                JLINK_RTTERMINAL_Read(BufferIndex = 0, BufferSize = 0x00000400)  returns 0 (0000ms, 0000ms total)
               -- CPU_ReadMem(4096 bytes @ 0x20009000) -- CPU_ReadMem(4096 bytes @ 0x2000A000) -- CPU_ReadMem(6 bytes @ 0x2000B000)
                JLINK_RTTERMINAL_Read(BufferIndex = 0, BufferSize = 0x00000400)  returns 0 (0000ms, 0000ms total)
               -- CPU_ReadMem(4096 bytes @ 0x2000B000) -- CPU_ReadMem(4096 bytes @ 0x2000C000) -- CPU_ReadMem(4096 bytes @ 0x2000D000)
                JLINK_RTTERMINAL_Read(BufferIndex = 0, BufferSize = 0x00000400)  returns 0 (0000ms, 0000ms total)
               -- CPU_ReadMem(4096 bytes @ 0x2000E000) -- CPU_ReadMem(4096 bytes @ 0x2000F000)
                JLINK_RTTERMINAL_Read(BufferIndex = 0, BufferSize = 0x00000400)  returns 0 (0000ms, 0000ms total)
               -- CPU_ReadMem(4096 bytes @ 0x20000000) -- CPU_ReadMem(4096 bytes @ 0x20001000)
                JLINK_RTTERMINAL_Read(BufferIndex = 0, BufferSize = 0x00000400)  returns 0 (0000ms, 0000ms total)
               -- CPU_ReadMem(4096 bytes @ 0x20002000) -- CPU_ReadMem(4096 bytes @ 0x20003000)
                JLINK_RTTERMINAL_Read(BufferIndex = 0, BufferSize = 0x00000400)  returns 0 (0000ms, 0000ms total)
               -- CPU_ReadMem(4096 bytes @ 0x20004000) -- CPU_ReadMem(4096 bytes @ 0x20005000)
                JLINK_RTTERMINAL_Read(BufferIndex = 0, BufferSize = 0x00000400)  returns 0 (0000ms, 0000ms total)
               -- CPU_ReadMem(4096 bytes @ 0x20006000) -- CPU_ReadMem(4096 bytes @ 0x20007000) -- CPU_ReadMem(8 bytes @ 0x20008000)
                JLINK_RTTERMINAL_Read(BufferIndex = 0, BufferSize = 0x00000400)  returns 0 (0000ms, 0000ms total)
               -- CPU_ReadMem(4096 bytes @ 0x20008000) -- CPU_ReadMem(4096 bytes @ 0x20009000)
                JLINK_RTTERMINAL_Read(BufferIndex = 0, BufferSize = 0x00000400)  returns 0 (0000ms, 0000ms total)
               -- CPU_ReadMem(4096 bytes @ 0x2000A000) -- CPU_ReadMem(6 bytes @ 0x2000B000) -- CPU_ReadMem(4096 bytes @ 0x2000B000)
                JLINK_RTTERMINAL_Read(BufferIndex = 0, BufferSize = 0x00000400)  returns 0 (0000ms, 0000ms total)
               -- CPU_ReadMem(4096 bytes @ 0x2000C000) -- CPU_ReadMem(4096 bytes @ 0x2000D000)
                JLINK_RTTERMINAL_Read(BufferIndex = 0, BufferSize = 0x00000400)  returns 0 (0000ms, 0000ms total)
               -- CPU_ReadMem(4096 bytes @ 0x2000E000) -- CPU_ReadMem(4096 bytes @ 0x2000F000) -- CPU_ReadMem(4096 bytes @ 0x20000000)
                JLINK_RTTERMINAL_Read(BufferIndex = 0, BufferSize = 0x00000400)  returns 0 (0000ms, 0000ms total)
               -- CPU_ReadMem(4096 bytes @ 0x20001000) -- CPU_ReadMem(4096 bytes @ 0x20002000)
                JLINK_RTTERMINAL_Read(BufferIndex = 0, BufferSize = 0x00000400)  returns 0 (0000ms, 0000ms total)
               -- CPU_ReadMem(4096 bytes @ 0x20003000) -- CPU_ReadMem(4096 bytes @ 0x20004000)
                JLINK_RTTERMINAL_Read(BufferIndex = 0, BufferSize = 0x00000400)  returns 0 (0000ms, 0000ms total)
               -- CPU_ReadMem(4096 bytes @ 0x20005000) -- CPU_ReadMem(4096 bytes @ 0x20006000)
                JLINK_RTTERMINAL_Read(BufferIndex = 0, BufferSize = 0x00000400)  returns 0 (0000ms, 0000ms total)
               -- CPU_ReadMem(4096 bytes @ 0x20007000) -- CPU_ReadMem(8 bytes @ 0x20008000) -- CPU_ReadMem(4096 bytes @ 0x20008000)
                JLINK_RTTERMINAL_Read(BufferIndex = 0, BufferSize = 0x00000400)  returns 0 (0000ms, 0000ms total)
               -- CPU_ReadMem(4096 bytes @ 0x20009000) -- CPU_ReadMem(4096 bytes @ 0x2000A000) -- CPU_ReadMem(6 bytes @ 0x2000B000)
                JLINK_RTTERMINAL_Read(BufferIndex = 0, BufferSize = 0x00000400)  returns 0 (0000ms, 0000ms total)
               -- CPU_ReadMem(4096 bytes @ 0x2000B000) -- CPU_ReadMem(4096 bytes @ 0x2000C000)
                JLINK_RTTERMINAL_Read(BufferIndex = 0, BufferSize = 0x00000400)  returns 0 (0000ms, 0000ms total)
               -- CPU_ReadMem(4096 bytes @ 0x2000D000) -- CPU_ReadMem(4096 bytes @ 0x2000E000) -- CPU_ReadMem(4096 bytes @ 0x2000F000)
                JLINK_RTTERMINAL_Read(BufferIndex = 0, BufferSize = 0x00000400)  returns 0 (0000ms, 0000ms total)
               -- CPU_ReadMem(4096 bytes @ 0x20000000) -- CPU_ReadMem(4096 bytes @ 0x20001000)
                JLINK_RTTERMINAL_Read(BufferIndex = 0, BufferSize = 0x00000400)  returns 0 (0000ms, 0000ms total)
               -- CPU_ReadMem(4096 bytes @ 0x20002000) -- CPU_ReadMem(4096 bytes @ 0x20003000)
                JLINK_RTTERMINAL_Read(BufferIndex = 0, BufferSize = 0x00000400)  returns 0 (0000ms, 0000ms total)
               -- CPU_ReadMem(4096 bytes @ 0x20004000) -- CPU_ReadMem(4096 bytes @ 0x20005000)
                JLINK_RTTERMINAL_Read(BufferIndex = 0, BufferSize = 0x00000400)  returns 0 (0000ms, 0000ms total)
               -- CPU_ReadMem(4096 bytes @ 0x20006000) -- CPU_ReadMem(4096 bytes @ 0x20007000) -- CPU_ReadMem(8 bytes @ 0x20008000)
                JLINK_RTTERMINAL_Read(BufferIndex = 0, BufferSize = 0x00000400)  returns 0 (0000ms, 0000ms total)
               -- CPU_ReadMem(4096 bytes @ 0x20008000) -- CPU_ReadMem(4096 bytes @ 0x20009000)
                JLINK_RTTERMINAL_Read(BufferIndex = 0, BufferSize = 0x00000400)  returns 0 (0000ms, 0000ms total)
               -- CPU_ReadMem(4096 bytes @ 0x2000A000) -- CPU_ReadMem(6 bytes @ 0x2000B000) -- CPU_ReadMem(4096 bytes @ 0x2000B000)
                JLINK_RTTERMINAL_Read(BufferIndex = 0, BufferSize = 0x00000400)  returns 0 (0000ms, 0000ms total)
               -- CPU_ReadMem(4096 bytes @ 0x2000C000) -- CPU_ReadMem(4096 bytes @ 0x2000D000)
                JLINK_RTTERMINAL_Read(BufferIndex = 0, BufferSize = 0x00000400)  returns 0 (0000ms, 0000ms total)
               -- CPU_ReadMem(4096 bytes @ 0x2000E000) -- CPU_ReadMem(4096 bytes @ 0x2000F000) -- CPU_ReadMem(4096 bytes @ 0x20000000)
                JLINK_RTTERMINAL_Read(BufferIndex = 0, BufferSize = 0x00000400)  returns 0 (0000ms, 0000ms total)
               -- CPU_ReadMem(4096 bytes @ 0x20001000) -- CPU_ReadMem(4096 bytes @ 0x20002000)
                JLINK_RTTERMINAL_Read(BufferIndex = 0, BufferSize = 0x00000400)  returns 0 (0000ms, 0000ms total)
               -- CPU_ReadMem(4096 bytes @ 0x20003000) -- CPU_ReadMem(4096 bytes @ 0x20004000)
                JLINK_RTTERMINAL_Read(BufferIndex = 0, BufferSize = 0x00000400)  returns 0 (0000ms, 0000ms total)
               -- CPU_ReadMem(4096 bytes @ 0x20005000) -- CPU_ReadMem(4096 bytes @ 0x20006000)
                JLINK_RTTERMINAL_Read(BufferIndex = 0, BufferSize = 0x00000400)  returns 0 (0000ms, 0000ms total)
               -- CPU_ReadMem(4096 bytes @ 0x20007000) -- CPU_ReadMem(8 bytes @ 0x20008000) -- CPU_ReadMem(4096 bytes @ 0x20008000)
                JLINK_RTTERMINAL_Read(BufferIndex = 0, BufferSize = 0x00000400)  returns 0 (0000ms, 0000ms total)
               -- CPU_ReadMem(4096 bytes @ 0x20009000) -- CPU_ReadMem(4096 bytes @ 0x2000A000) -- CPU_ReadMem(6 bytes @ 0x2000B000)
                JLINK_RTTERMINAL_Read(BufferIndex = 0, BufferSize = 0x00000400)  returns 0 (0000ms, 0000ms total)
               -- CPU_ReadMem(4096 bytes @ 0x2000B000) -- CPU_ReadMem(4096 bytes @ 0x2000C000)
                JLINK_RTTERMINAL_Read(BufferIndex = 0, BufferSize = 0x00000400)  returns 0 (0000ms, 0000ms total)
               -- CPU_ReadMem(4096 bytes @ 0x2000D000) -- CPU_ReadMem(4096 bytes @ 0x2000E000)
                JLINK_RTTERMINAL_Read(BufferIndex = 0, BufferSize = 0x00000400)  returns 0 (0000ms, 0000ms total)
               -- CPU_ReadMem(4096 bytes @ 0x2000F000) -- CPU_ReadMem(4096 bytes @ 0x20000000) -- CPU_ReadMem(4096 bytes @ 0x20001000)
